#Digilent WaveForms Network Analyzer - Bode
#Device Name: Discovery2
#Serial Number: SN:210321A18A25
#Date Time: 2024-04-26 10:47:58.467
#Start: 100 Hz
#Stop: 50000 Hz
#Steps: 151
#Wavegen: Wavegen C1
#Amplification: 1 X
#Settle: 10 ms
#MinPeriods: 16 
#Channel: Channel 1
#Range: 60.4725 V
#Offset: -0.00262502 V
#Relative: no
#Channel: Channel 2
#Range: 59.9539 V
#Offset: -0.00191686 V
#Relative: yes

Frequency (Hz),Channel 1 Magnitude (dB),Channel 2 Magnitude (dB),Channel 2 Phase (deg)
100.0000000000001,-0.9226092752387491,-0.08512233140728064,-1.255553907647524
104.2300949424216,-0.9423279501167894,-0.03496592346833251,-1.356818594951619
108.6391269170621,-0.9581534849901119,-0.02746445973393806,-1.337040676854883
113.2346651302716,-0.9538205256035974,-0.03776200074938372,-1.461077521753253
118.0245989730151,-0.9351229144034299,-0.04540412809016203,-1.440845780799961
123.0171515649861,-0.9241274862303557,-0.04876380326124145,-1.644810218622581
128.2208938716475,-0.9196715313241295,-0.05478253688541534,-1.792648658413469
133.6447594184397,-0.9396309292754073,-0.02590249045855386,-1.813014656991697
139.2980596274105,-0.9250709699723524,-0.04877692970473763,-1.835352050868266
145.1904998026008,-0.9240491372092347,-0.02188039338773085,-2.051700480399504
151.3321957916271,-0.9221658072798316,-0.04109606757548079,-1.935649536915903
157.7336913520643,-0.9232448174488512,-0.04859928528490094,-2.245235553584322
164.4059762524425,-0.9006569407496884,-0.06837477555095883,-1.97105093405402
171.360505138936,-0.9310166858028515,-0.03676684120820012,-2.233878127565617
178.609217200126,-0.9108847415158194,-0.03905604859496666,-2.384428847992453
186.1645566636072,-0.8992385779828664,-0.04342924663691655,-2.423949771142994
194.0394941596158,-0.8836955252818833,-0.07787417523797872,-2.654521446043404
202.247548988362,-0.9088182069424645,-0.04196587254512715,-2.526982646391502
210.8028123292901,-0.9217179356295053,-0.03785979793895534,-2.767454197711828
219.7199714321139,-0.908563047469483,-0.05401911237731275,-2.890198177718091
229.0143348311534,-0.8960879243934051,-0.08998493471977489,-3.129944923560046
238.7018586262665,-0.8973381274908572,-0.06985238869475829,-3.369027266634752
248.7991738754823,-0.9017025364648266,-0.06710644259007342,-3.308202959392545
259.3236151463755,-0.9112952218551422,-0.07418067711782909,-3.47098311776659
270.2932502751869,-0.8940912120315263,-0.07279975204453913,-3.459616053511411
281.7269113847843,-0.909654795661309,-0.06362380297396818,-3.714141337762171
293.6442272147124,-0.9027974064532478,-0.06199908093452389,-3.921456602223884
306.0656568188346,-0.9288203971075415,-0.05155013334006976,-3.984160413518545
319.0125246884172,-0.9031803568403538,-0.07675367641842346,-4.274235416538687
332.5070573609534,-0.913274770191384,-0.05950500463900404,-4.363918690142356
346.5724215775736,-0.9190921372892737,-0.07542866248456645,-4.468874847700519
361.2327640545542,-0.9065300874333831,-0.07294852182765799,-4.816394876328474
376.5132529371953,-0.8908050772905617,-0.09428302072645499,-4.845935566250908
392.4401210072382,-0.8980553230084248,-0.07650330731544913,-5.235813090471837
409.0407107179982,-0.8777552974812169,-0.1022340032203566,-5.112001862819085
426.3435211345256,-0.9047957330341792,-0.09181924625263495,-5.444692373159583
444.3782568593789,-0.8744887477843405,-0.1248107920020981,-5.881956218581905
463.1758790280082,-0.9086347229223735,-0.09748319183910363,-6.132353001868378
482.7686584612883,-0.8732357501809128,-0.1393190907748843,-6.060325551881903
503.1902310664553,-0.8995516885076399,-0.120038795145995,-6.540391084808107
524.4756555815562,-0.8810166355460337,-0.1380372849439543,-6.694371693560015
546.6614737625438,-0.8958738419943082,-0.1350616289107409,-7.297585061022687
569.7857731163404,-0.8938298644073517,-0.1464772229744226,-7.344939818518512
593.8882522875714,-0.8923417594877103,-0.1618016253901517,-7.434144576437596
619.0102892112237,-0.8851011027598256,-0.178602229693396,-7.999519437604491
645.1950121482167,-0.8936174482436892,-0.1779774832624979,-8.181478387275199
672.4873737258538,-0.8991726782803842,-0.2131880104552056,-8.790640755953987
700.9342281102546,-0.9035496638223928,-0.1954867392967219,-8.572083280221761
730.584411443248,-0.8912506038791588,-0.2092368877650249,-9.226109847841283
761.4888256818282,-0.8955246194147679,-0.2018443316017788,-9.559091308554088
793.7005259841002,-0.9020862424403443,-0.2320515700731298,-9.634186142739978
827.2748117917272,-0.8760744006025956,-0.2690597653227112,-9.953674346644226
862.2693217652554,-0.9124388255311571,-0.2677769221034113,-10.59185166621683
898.7441327352996,-0.8597937736686421,-0.3137605570172415,-10.83026309181213
936.7618628394459,-0.8418535399910507,-0.326248622759768,-11.11176651257541
976.3877790219507,-0.8822137788745065,-0.3174047151886926,-11.67414742067591
1017.68990908078,-0.8404596157362079,-0.3736597622688823,-11.9329364428289
1060.73915845434,-0.8785604320364899,-0.3235490330530698,-12.7172066648135
1105.609431948401,-0.8672240935950435,-0.3768544796184271,-12.82801749141447
1152.377760612186,-0.8739152365042956,-0.3984083294200605,-13.70018668867734
1201.124433981432,-0.8532569854520946,-0.4175870544517258,-13.69409580844032
1251.93313791547,-0.8464897391526798,-0.4059565613269971,-14.40550174233442
1304.891098264931,-0.8333821546014739,-0.4676833258081426,-14.65289385943191
1360.089230616743,-0.8732484791884227,-0.491994018462357,-15.46633449478878
1417.622296373483,-0.8627443617467236,-0.4574474229657577,-16.0491560252217
1477.589065435017,-0.8275046013661143,-0.5225329985958396,-16.74175942156414
1540.092485761756,-0.8627406039997676,-0.5334324619046945,-17.19933333532754
1605.239860110578,-0.8680545688440834,-0.5307564471270717,-17.85337100726497
1673.14303024685,-0.8292597587681021,-0.6024952223404427,-18.12826103288253
1743.918568948799,-0.8254472850323047,-0.6210061653004202,-18.98640390180029
1817.687980133853,-0.8178927284322983,-0.6191776369041281,-19.42884969713964
1894.577907450499,-0.8545237659236117,-0.6141221322946575,-20.32912494282845
1974.720351693797,-0.857252493853448,-0.67060983191344,-20.80788492414891
2058.252897417765,-0.8474509123475944,-0.7005846547357762,-21.46751701920816
2145.318949133678,-0.8025627333531421,-0.7267867696245163,-22.29772273445995
2236.067977499791,-0.8184226604404514,-0.6921423325053309,-23.08281224428922
2330.655775925117,-0.8161584454375704,-0.7443520577207499,-23.98029830295479
2429.244728027779,-0.790950897647378,-0.7072683519482114,-24.98896618612494
2532.004086407124,-0.8274442815297401,-0.7385601710588842,-25.60122295179966
2639.110263208136,-0.7853434179552468,-0.7959293862211323,-26.37587825704847
2750.747132977031,-0.7877779197459029,-0.8151448797926387,-27.48687984810888
2867.106348327898,-0.7809682300548381,-0.8339982838227569,-28.65694120583404
2988.38766896236,-0.7693705507677133,-0.8554380931220555,-29.86503625538849
3114.799304607086,-0.7830231755359551,-0.802912030695032,-30.87949775495866
3246.558272457852,-0.7681933148126743,-0.8123113217402018,-31.72027447891807
3383.890769743857,-0.7392500566647946,-0.8483931065667393,-33.07994121514655
3527.032562051862,-0.7693207100702314,-0.8666528799504976,-33.82727859622514
3676.229388076776,-0.7360086542412485,-0.8920332880189635,-35.84020600717575
3831.737381493625,-0.7986147137790706,-0.8246322483175207,-37.01341516573488
3993.823510675062,-0.7173654841905457,-0.9021099914236561,-38.1561437197779
4162.766037009368,-0.7364001177002684,-0.8299323455542807,-39.52224140877657
4338.854992605741,-0.7121938825879177,-0.886416145066195,-41.46486159336987
4522.392678206958,-0.699718874178742,-0.9756131327052684,-42.8840646472898
4713.694182164233,-0.6973042092054828,-0.9455913079973839,-44.04577423458659
4913.087921365179,-0.691936599545425,-0.9616070778143782,-46.29583723496425
5120.916205043567,-0.7104343141824988,-0.9307357580217489,-47.81340859356013
5337.53582243876,-0.6762955462645054,-0.9953066661361356,-50.38318783969444
5563.318655313677,-0.6895203907776823,-0.9354447664783337,-52.31412555869208
5798.652316382892,-0.6918807309762216,-0.9274660367219112,-54.38631840652046
6043.940814746816,-0.6644039060133667,-0.9687064704953919,-56.84640236107857
6299.605249474367,-0.7194220609628031,-0.9246630578242626,-58.4504949997016
6566.084532524903,-0.6457133282448991,-1.00101078258704,-61.54877744086754
6843.836142250362,-0.7038876630207586,-0.9229350627768346,-63.44887811488427
7133.336908771306,-0.6544748588457483,-0.9611987847093683,-66.57059434532003
7435.083832575129,-0.6790230226179335,-0.98492664227949,-69.43416200631238
7749.594937741685,-0.6880109191611345,-1.026383760242186,-72.2923477498021
8077.410161261253,-0.6867782882923624,-1.070868287288611,-75.75967382154613
8419.092279971408,-0.6726675531353237,-1.064007071526372,-78.85641324174804
8775.227876704274,-0.7066637447536277,-1.015212352428577,-82.9051072107782
9146.428347302706,-0.7211755287018136,-1.049046409300537,-85.79250948971864
9533.33095023416,-0.6445598265044072,-1.096271104439736,-90.11083050902391
9936.599900604322,-0.6780967936013939,-1.112056095121,-95.90541657787998
10356.92751044845,-0.6742082583982195,-0.9390864820752471,-100.5888553439054
10795.03537725818,-0.7461669197237151,-1.13775961827638,-105.0504017221923
11251.6756227842,-0.7007431034098371,-1.372688396793492,-109.7471354729358
11727.63218424127,-0.7433311598039636,-1.409113371889259,-114.4661896412664
12223.72216013265,-0.7367625592043471,-1.464465238002507,-122.6259467308784
12740.79721300408,-0.7268281466830158,-2.096863942420822,-129.363555134761
13279.74503153555,-0.7579583974859383,-2.123708127930737,-133.3331868844287
13841.490854481,-0.7117721115992919,-2.540143104112532,-137.4982545674184
14426.99905907214,-0.7533722991627527,-2.705847255361959,-141.8513033460167
15037.27481661315,-0.8236211576557519,-3.062324161122689,-147.5889320057583
15673.36581810872,-0.8101238630871128,-3.554023460548143,-152.8084419959029
16336.36407288775,-0.7993776021975285,-3.882596791952004,-152.3928214133877
17027.40778331055,-0.7981431904397258,-3.73434226509283,-164.6597971478776
17747.68329877786,-0.8126936496099115,-4.832989879500376,-166.9222091192153
18498.42715239644,-0.8158027105047049,-5.137415128241978,-174.9939022536532
19280.92818379749,-0.8894761174064597,-5.38034099875389,-179.8268837279422
20096.52975175224,-0.8279861315762458,-5.809165347041426,-185.6631330263204
20946.63204038333,-0.8486693728600968,-6.221202504852753,-188.1697213906728
21832.69446293124,-0.8745482709972635,-6.593093935381225,-194.6744951034279
22756.23816720202,-0.8040535690932675,-7.410001488105475,-203.5952093785863
23718.84864699823,-0.7859738523507237,-6.488330771138223,-220.4792133150651
24722.17846401552,-0.8373291029940237,-4.183047948868557,-254.2605350820444
25767.95008487826,-0.8285131554295634,-4.407226658416744,-259.888665886309
26857.95883818439,-0.821373657637152,-8.359373625519407,-201.225294195742
27994.07599663607,-0.8222999187467943,-8.480286587850237,-224.5184402443902
29178.25198954741,-0.7795892191793092,-10.39574411028743,-238.7467663993603
30412.51975124426,-0.7499898407098271,-10.66800158435504,-246.3859950522752
31698.99821110458,-0.7766615711701469,-11.17512729515567,-255.454175917226
33039.89593123081,-0.8462228431337051,-10.2359988565606,-257.2137803250538
34437.51489799911,-0.8232826498424505,-12.58697893758799,-266.0348719402073
35894.25447399503,-0.7007835341875757,-14.56974624213052,-288.3267348673418
37412.61551711941,-0.8009088327162496,-16.72044041670207,-297.7389190543565
38995.20467393667,-0.7928405217209179,-20.63424714289925,-313.9759982579129
40644.73885463578,-0.8236663803144157,-13.75425343409613,-276.3850805654453
42364.04989728618,-0.7550251649257699,-19.67660861015915,-170.4609248446951
44156.08942939618,-0.8763440040598727,2.068113068496325,-262.3651572339783
46023.93393512021,-0.8041958163075541,9.818999433289335,-249.8448227806573
47970.79003681312,-0.5371004749413371,11.54488916342824,-12.74155592260377
50000,-0.5892747164613843,11.62386637021127,-307.67402243028
