#Digilent WaveForms Network Analyzer - Bode
#Device Name: Discovery2
#Serial Number: DEMO
#Date Time: 2024-04-19 11:03:51.411
#Start: 100 Hz
#Stop: 50000 Hz
#Steps: 151
#Wavegen: Wavegen C1
#Amplification: 1 X
#Settle: 10 ms
#MinPeriods: 16 
#Channel: Channel 1
#Range: 60.8119 V
#Offset: -0.000661129 V
#Relative: no
#Channel: Channel 2
#Range: 59.8223 V
#Offset: 0.00280626 V
#Relative: yes

Frequency (Hz),Channel 1 Magnitude (dB),Channel 2 Magnitude (dB),Channel 2 Phase (deg)
100.0000000000001,-0.3490830394847976,-0.03371272000973028,-1.162403222213428
104.2300949424216,-0.3639869845990324,-0.02335716955254378,-1.112875957939806
108.6391269170621,-0.3620897111431126,-0.02916930817957054,-1.139052554519765
113.2346651302716,-0.3417786669024539,-0.03859843186905584,-1.183339439856937
118.0245989730151,-0.3294913590966059,-0.05484917819936558,-1.377488636014164
123.0171515649861,-0.3363827708600558,-0.04644643326892861,-1.44886785719936
128.2208938716475,-0.3380855838434985,-0.05871138920062681,-1.396864650006137
133.6447594184397,-0.3349627306573102,-0.05297156191962625,-1.657279613026169
139.2980596274105,-0.3346074580493399,-0.05181288042926336,-1.597694162643066
145.1904998026008,-0.3444201343374708,-0.02546357419788793,-1.725361362993482
151.3321957916271,-0.3475573356338046,-0.03912217949017597,-1.595459008436251
157.7336913520643,-0.3484270316985988,-0.02296514174007167,-1.740395104027911
164.4059762524425,-0.3543688222462102,-0.01405293845671605,-1.61186066375403
171.360505138936,-0.3194864952426432,-0.05049546925919304,-1.977604146748149
178.609217200126,-0.3456802735491604,-0.02254714963958758,-1.801269886265544
186.1645566636072,-0.3287308061519739,-0.03762178368958918,-1.985057427181886
194.0394941596158,-0.3310840032527143,-0.04674407137182882,-2.160706078114785
202.247548988362,-0.3202145763319714,-0.04601578412183342,-2.312477445253919
210.8028123292901,-0.3108939388317855,-0.05677055054298673,-2.389532853296487
219.7199714321139,-0.3174443132836662,-0.04125861757966261,-2.482403805183633
229.0143348311534,-0.3205967141616797,-0.04134277626094981,-2.400966761666837
238.7018586262665,-0.3172250980140106,-0.03918028505506912,-2.496724273983105
248.7991738754823,-0.3334299015926372,-0.02269961910444453,-2.646589509660143
259.3236151463755,-0.3061865801725622,-0.05262862202615049,-2.737752010940625
270.2932502751869,-0.3303314549689864,-0.01388101202174541,-2.995234745667887
281.7269113847843,-0.3225487584627095,-0.02503086784449746,-3.096178289107229
293.6442272147124,-0.3332193545821991,8.246701534942573e-05,-3.298877969781046
306.0656568188346,-0.3229903484021418,-0.009560385665916252,-3.527352870007178
319.0125246884172,-0.3225840943422523,-0.03021436684147945,-3.429899650054651
332.5070573609534,-0.3292224750778855,0.00346156879000229,-3.518387730615984
346.5724215775736,-0.3125738981743058,-0.0006306325186713437,-3.735112628057038
361.2327640545542,-0.3041472000287806,-0.03103886104749482,-4.043235398338751
376.5132529371953,-0.3030251871826264,-0.008006061068045934,-4.002407030185822
392.4401210072382,-0.3255135035277155,0.01916302069140126,-4.435026694889686
409.0407107179982,-0.3319861051301168,0.01430043618927754,-4.466072787033092
426.3435211345256,-0.3158147520904123,0.002379804215665037,-4.504797105354044
444.3782568593789,-0.3152700053135315,0.01180302085366687,-4.839731885213567
463.1758790280082,-0.3014974386316834,0.002170763540785362,-5.09799646239702
482.7686584612883,-0.3025205206040941,0.01798480223247777,-5.213185158325473
503.1902310664553,-0.3241545991191823,0.03903869293884675,-5.650843575145046
524.4756555815562,-0.3090801366173871,0.04620179427723598,-5.664129169559146
546.6614737625438,-0.3164406089633082,0.0550284209817578,-6.068082923675004
569.7857731163404,-0.3436244028425956,0.091121056621672,-6.354097525087141
593.8882522875714,-0.3065536822779471,0.05534998194169377,-6.618793722836173
619.0102892112237,-0.3423860111584451,0.09398517425479236,-6.92148205867042
645.1950121482167,-0.316752700915769,0.09387882937143663,-7.250005645509447
672.4873737258538,-0.3308636049823205,0.1246514491211236,-7.437646053377561
700.9342281102546,-0.3168510123739849,0.1353082657688496,-7.7646435057556
730.584411443248,-0.306094146339098,0.1069821688005921,-8.269391667434647
761.4888256818282,-0.2792208843245415,0.0977497295915284,-8.575924526028849
793.7005259841002,-0.338768123109875,0.1685911655467625,-8.848720181645577
827.2748117917272,-0.2867111633723955,0.159070694725351,-9.434079330469643
862.2693217652554,-0.3182148228719167,0.2420676189337352,-9.670237877860288
898.7441327352996,-0.3158812233141374,0.2357869517305259,-10.09752910616481
936.7618628394459,-0.2967022238942655,0.27297169173804,-10.60496174392807
976.3877790219507,-0.2963988686317294,0.2936908466509611,-11.24885471991871
1017.68990908078,-0.2762641585899458,0.2788232285468724,-11.55634099464216
1060.73915845434,-0.2839777097041719,0.3513273722831668,-12.12681511178545
1105.609431948401,-0.268245918614773,0.3373075710068584,-13.09113659512275
1152.377760612186,-0.3083227081197131,0.3953526505302885,-13.40347870998704
1201.124433981432,-0.2863967461263889,0.4299461773676534,-14.08758998938645
1251.93313791547,-0.2944232103053295,0.4638627406759361,-15.1546218847772
1304.891098264931,-0.2768872181058206,0.4907232447478238,-15.565598028816
1360.089230616743,-0.2896216229367551,0.5403847054126882,-16.56130204436287
1417.622296373483,-0.2989989289167634,0.642014809756739,-17.2140209834418
1477.589065435017,-0.3179533971121216,0.6859067031294251,-18.29137695677171
1540.092485761756,-0.3055981290211814,0.7220766792892739,-19.30093617167397
1605.239860110578,-0.271575558629029,0.779188800726035,-20.23770213915833
1673.14303024685,-0.2802242645462289,0.8601409314046311,-21.00597470848174
1743.918568948799,-0.2559937008407349,0.8420080362064731,-22.44330066874636
1817.687980133853,-0.2772609243281814,0.9729739758844418,-23.80943429488778
1894.577907450499,-0.2278927972442867,1.051943266075142,-24.90097711202721
1974.720351693797,-0.2666644875312228,1.118348793668256,-26.68978698764619
2058.252897417765,-0.2353452792059365,1.178426581934665,-28.39948626964389
2145.318949133678,-0.2644485730499798,1.26160674757645,-30.27060921844861
2236.067977499791,-0.2450579248845571,1.316268648007326,-32.03492171422295
2330.655775925117,-0.2371946945713965,1.399223403057701,-33.75966281361369
2429.244728027779,-0.2250820779063771,1.497294337833001,-36.22583027543405
2532.004086407124,-0.242848991073645,1.571614795236314,-38.48206744264991
2639.110263208136,-0.2276837466660222,1.612170506539826,-41.1835971856716
2750.747132977031,-0.2180216431159598,1.665706231024153,-44.15459012002376
2867.106348327898,-0.2258285495682563,1.696773007933434,-47.20931410305893
2988.38766896236,-0.2457393842565216,1.736985920807196,-50.60582540592861
3114.799304607086,-0.2188828958857156,1.697361073578662,-53.64272110499863
3246.558272457852,-0.2187152279172607,1.688184487910915,-57.32643204115751
3383.890769743857,-0.2085848583418939,1.599447443014381,-60.84402308664164
3527.032562051862,-0.178315745510354,1.458970016684806,-65.17189747587139
3676.229388076776,-0.2162546516059949,1.382564233811933,-68.97089174757117
3831.737381493625,-0.1761697539459404,1.152460086824641,-73.37942404831725
3993.823510675062,-0.1763353799249232,0.9122927493088238,-77.51605137158744
4162.766037009368,-0.2035580931519448,0.5920189653149107,-82.21839817606727
4338.854992605741,-0.1985487488997024,0.2467975885107532,-85.97441718492148
4522.392678206958,-0.1178435180208302,-0.1279916630318006,-89.69183479486198
4713.694182164233,-0.1777473165572856,-0.6071112554697196,-93.77063767150868
4913.087921365179,-0.1586171284851079,-1.0389900441715,-97.72628523846275
5120.916205043567,-0.1301819986251321,-1.586653688999803,-101.2577775331701
5337.53582243876,-0.136715961197266,-2.108917411457455,-104.4276344404078
5563.318655313677,-0.1134571726579116,-2.653874801582858,-107.2149199333959
5798.652316382892,-0.1245806001592496,-3.175056584316325,-110.6154548165194
6043.940814746816,-0.12883272284127,-3.698951521533624,-114.0908378471065
6299.605249474367,-0.1313932243172344,-4.217790629549476,-115.9784832109935
6566.084532524903,-0.1075580735381857,-4.797453379659601,-118.9018992568526
6843.836142250362,-0.09725432150164644,-5.267233533177804,-120.6046598904432
7133.336908771306,-0.09656109089853909,-5.996270502675962,-122.3956329756
7435.083832575129,-0.1389059687950539,-6.390456334831137,-125.0423415934147
7749.594937741685,-0.07745855930164135,-7.0257182528841,-126.9842203483574
8077.410161261253,-0.07559017416031913,-7.628741099669708,-129.6129977324628
8419.092279971408,-0.1014207903572946,-8.016604144068596,-130.7763365788182
8775.227876704274,-0.09010050955895278,-8.488041297645974,-133.4470100601476
9146.428347302706,-0.07861093557913897,-9.008606734134716,-135.9469651097195
9533.33095023416,-0.08975702533612982,-9.445441462466688,-136.1426629378983
9936.599900604322,-0.1059472864566277,-9.868940656472638,-139.875060704679
10356.92751044845,-0.1145134785864544,-10.23548158954733,-141.2710325405824
10795.03537725818,-0.158210268572597,-10.84447185314924,-144.1653217360597
11251.6756227842,-0.1042828552520366,-11.27192416941102,-146.0731843552032
11727.63218424127,-0.1152804669140803,-11.80514852700398,-148.1493823788911
12223.72216013265,-0.1221227736145642,-11.73683817760822,-148.9117911554492
12740.79721300408,-0.09669780246944243,-12.30207392202542,-151.248491169164
13279.74503153555,-0.07958470434463907,-12.46770949992229,-154.8778960171963
13841.490854481,-0.07162275271010186,-12.97023318053458,-156.7302914164422
14426.99905907214,-0.108880240251967,-13.5848554339317,-159.1209349451757
15037.27481661315,-0.07352611216874885,-13.69878215090413,-161.1722153145865
15673.36581810872,-0.1437043981951702,-13.76333179588593,-163.9933865113831
16336.36407288775,-0.09569597978768091,-14.30263827523095,-168.9228764853593
17027.40778331055,-0.0935134607655739,-14.5434132348956,-171.9293920622396
17747.68329877786,-0.09406362545043742,-14.57749336314105,-176.8892639256511
18498.42715239644,-0.1181874117670009,-15.02803833012611,-182.3994483227667
19280.92818379749,-0.1089777737858622,-15.04512513619195,-183.9299622929779
20096.52975175224,-0.2041222073348198,-15.70006338925626,-191.6538296981976
20946.63204038333,-0.08955792081960431,-15.92205352169972,-197.612254150943
21832.69446293124,-0.1443592836591817,-16.02073794012775,-200.9938089189163
22756.23816720202,-0.0691620970237673,-16.59833892178124,-208.695474505378
23718.84864699823,-0.2562850503983232,-16.03259581297868,-203.5659797656242
24722.17846401552,-0.15631527118505,-25.65180445052943,-157.7294255785967
25767.95008487826,-0.0226605865090127,-17.71122108628537,-297.4615817514572
26857.95883818439,-0.1161320270268957,-19.84312187098474,-203.4183619745154
27994.07599663607,-0.1866627529200284,-19.56062569502541,-265.7002111297917
29178.25198954741,-0.1320487633564796,-19.8203001348085,-260.0905514137196
30412.51975124426,-0.11734871186466,-20.70508774368305,-261.7260110467994
31698.99821110458,-0.1883871392829951,-22.43629518976611,-267.5982417148069
33039.89593123081,-0.08083838290336666,-23.282101193565,-280.7538200707579
34437.51489799911,-0.1230084638473944,-23.42934499576149,-284.9951034655153
35894.25447399503,-0.0319784448871315,-26.02619893430874,-284.9236752840351
37412.61551711941,-0.1537645106086823,-27.2004003847767,-286.7683360066001
38995.20467393667,-0.1586628209928661,-26.60886305811147,-284.7484083960819
40644.73885463578,-0.06248202009195189,-18.60324118008169,-10.45950922162658
42364.04989728618,-0.1819165850566934,-16.7861213169496,-266.9233884134864
44156.08942939618,-0.1550417227916308,0.3161024601186952,-59.97349525727287
46023.93393512021,0.05701428813965136,8.805336998149267,-32.23976703079231
47970.79003681312,-0.02730703902462259,11.30486169562518,-89.89713198430195
50000,0.05586051788708329,11.30584930265749,-59.33959957308335
